
T2C38 000:044 SEGGER J-Link V5.12g Log File (0000ms, 0020ms total)
T2C38 000:044 DLL Compiled: May 27 2016 16:57:47 (0000ms, 0020ms total)
T2C38 000:044 Logging started @ 2017-03-23 20:11 (0000ms, 0020ms total)
T2C38 000:044 JLINK_SetWarnOutHandler(...) (0000ms, 0020ms total)
T2C38 000:045 JLINK_OpenEx(...)
Firmware: J-Link V9 compiled Sep  1 2016 18:29:50
Hardware: V9.40
S/N: 59400009
Feature(s): GDB, RDI, FlashBP, FlashDL, JFlash  returns O.K. (0019ms, 0040ms total)
T2C38 000:064 JLINK_SetErrorOutHandler(...) (0000ms, 0040ms total)
T2C38 000:064 JLINK_ExecCommand("ProjectFile = "C:\Users\wang\Desktop\3.21\src\utils\project\eval\s132\keil\JLinkSettings.ini"", ...)  returns 0x00 (0000ms, 0040ms total)
T2C38 000:072 JLINK_ExecCommand("Device = nRF52832_xxAA", ...)Device "NRF52832_XXAA" selected.  returns 0x00 (0002ms, 0042ms total)
T2C38 000:074 JLINK_ExecCommand("DisableConnectionTimeout", ...)  returns 0x01 (0000ms, 0042ms total)
T2C38 000:074 JLINK_GetHardwareVersion()  returns 0x16F30 (0000ms, 0042ms total)
T2C38 000:074 JLINK_GetDLLVersion()  returns 51207 (0000ms, 0042ms total)
T2C38 000:074 JLINK_GetFirmwareString(...) (0000ms, 0042ms total)
T2C38 000:080 JLINK_GetDLLVersion()  returns 51207 (0000ms, 0042ms total)
T2C38 000:080 JLINK_GetCompileDateTime() (0000ms, 0042ms total)
T2C38 000:082 JLINK_GetFirmwareString(...) (0000ms, 0042ms total)
T2C38 000:084 JLINK_GetHardwareVersion()  returns 0x16F30 (0000ms, 0042ms total)
T2C38 000:092 JLINK_TIF_Select(JLINKARM_TIF_SWD)  returns 0x00 (0003ms, 0045ms total)
T2C38 000:095 JLINK_SetMaxSpeed() >0x108 TIF>Found SWD-DP with ID 0x2BA01477 >0x0D TIF> >0x28 TIF> >0x0D TIF> >0x28 TIF> >0x0D TIF> >0x28 TIF> >0x0D TIF> >0x28 TIF> >0x35 TIF> >0x0D TIF> >0x28 TIF> >0x0D TIF> >0x28 TIF> >0x35 TIF> >0x35 TIF> >0x35 TIF> >0x0D TIF> >0x28 TIF> >0x0D TIF> >0x28 TIF> >0x0D TIF> >0x28 TIF> >0x35 TIF> >0x35 TIF> >0x0D TIF> >0x28 TIF> >0x35 TIF> >0x35 TIF>Found Cortex-M4 r0p1, Little endian. -- CPU_ReadMem(4 bytes @ 0xE000EDF0) -- CPU_ReadMem(4 bytes @ 0xE0002000)
FPUnit: 6 code (BP) slots and 2 literal slots -- CPU_ReadMem(4 bytes @ 0xE000EDFC) -- CPU_ReadMem(4 bytes @ 0xE0001000) -- CPU_WriteMem(4 bytes @ 0xE0001000) -- CPU_ReadMem(4 bytes @ 0xE000ED88) -- CPU_WriteMem(4 bytes @ 0xE000ED88) -- CPU_ReadMem(4 bytes @ 0xE000ED88) -- CPU_WriteMem(4 bytes @ 0xE000ED88)CoreSight components:ROMTbl 0 @ E00FF000 -- CPU_ReadMem(16 bytes @ 0xE00FF000) -- CPU_ReadMem(16 bytes @ 0xE000EFF0) -- CPU_ReadMem(16 bytes @ 0xE000EFE0)
ROMTbl 0 [0]: FFF0F000, CID: B105E00D, PID: 000BB00C SCS -- CPU_ReadMem(16 bytes @ 0xE0001FF0) -- CPU_ReadMem(16 bytes @ 0xE0001FE0)ROMTbl 0 [1]: FFF02000, CID: B105E00D, PID: 003BB002 DWT -- CPU_ReadMem(16 bytes @ 0xE0002FF0) -- CPU_ReadMem(16 bytes @ 0xE0002FE0)ROMTbl 0 [2]: FFF03000, CID: B105E00D, PID: 002BB003 FPB -- CPU_ReadMem(16 bytes @ 0xE0000FF0) -- CPU_ReadMem(16 bytes @ 0xE0000FE0)ROMTbl 0 [3]: FFF01000, CID: B105E00D, PID: 003BB001 ITM -- CPU_ReadMem(16 bytes @ 0xE00FF010)
 -- CPU_ReadMem(16 bytes @ 0xE0040FF0) -- CPU_ReadMem(16 bytes @ 0xE0040FE0)ROMTbl 0 [4]: FFF41000, CID: B105900D, PID: 000BB9A1 TPIU -- CPU_ReadMem(16 bytes @ 0xE0041FF0) -- CPU_ReadMem(16 bytes @ 0xE0041FE0)ROMTbl 0 [5]: FFF42000, CID: B105900D, PID: 000BB925 ETM (0106ms, 0151ms total)
T2C38 000:202 JLINK_GetSpeed()  returns 0x7D0 (0000ms, 0151ms total)
T2C38 000:202 JLINK_GetId() >0x35 TIF>  returns 0x2BA01477 (0001ms, 0152ms total)
T2C38 000:203 JLINK_CORE_GetFound()  returns 0xE0000FF (0000ms, 0152ms total)
T2C38 000:205 JLINK_ReadMem (0xE00FFFF0, 0x0010 Bytes, ...) -- CPU is running -- CPU_ReadMem(16 bytes @ 0xE00FFFF0) - Data: 0D 00 00 00 10 00 00 00 05 00 00 00 B1 00 00 00  returns 0x00 (0001ms, 0153ms total)
T2C38 000:206 JLINK_ReadMem (0xE00FFFD0, 0x0020 Bytes, ...) -- CPU is running -- CPU_ReadMem(32 bytes @ 0xE00FFFD0) - Data: 02 00 00 00 00 00 00 00 00 00 00 00 00 00 00 00 ...  returns 0x00 (0001ms, 0154ms total)
T2C38 000:207 JLINK_ReadMem (0xE00FF000, 0x0018 Bytes, ...) -- CPU is running -- CPU_ReadMem(24 bytes @ 0xE00FF000) - Data: 03 F0 F0 FF 03 20 F0 FF 03 30 F0 FF 03 10 F0 FF ...  returns 0x00 (0000ms, 0154ms total)
T2C38 000:207 JLINK_CORE_GetFound()  returns 0xE0000FF (0000ms, 0154ms total)
T2C38 000:207 JLINK_ReadMemU32(0xE000EF40, 0x0001 Items, ...) -- CPU is running -- CPU_ReadMem(4 bytes @ 0xE000EF40) - Data: 21 00 11 10  returns 0x01 (0001ms, 0155ms total)
T2C38 000:208 JLINK_ReadMemU32(0xE000EF44, 0x0001 Items, ...) -- CPU is running -- CPU_ReadMem(4 bytes @ 0xE000EF44) - Data: 11 00 00 11  returns 0x01 (0000ms, 0155ms total)
T2C38 000:208 JLINK_ReadMemU32(0xE000ED00, 0x0001 Items, ...) -- CPU is running -- CPU_ReadMem(4 bytes @ 0xE000ED00) - Data: 41 C2 0F 41  returns 0x01 (0001ms, 0156ms total)
T2C38 000:209 JLINK_SetResetType(JLINKARM_RESET_TYPE_NORMAL)  returns JLINKARM_RESET_TYPE_NORMAL (0000ms, 0156ms total)
T2C38 000:209 JLINK_Reset() -- CPU is running -- CPU_WriteMem(4 bytes @ 0xE000EDF0) -- CPU is running -- CPU_WriteMem(4 bytes @ 0xE000EDFC) >0x35 TIF> -- CPU is running -- CPU_WriteMem(4 bytes @ 0xE000ED0C) -- CPU is running -- CPU_ReadMem(4 bytes @ 0xE000EDF0) -- CPU is running -- CPU_ReadMem(4 bytes @ 0xE000EDF0) -- CPU is running -- CPU_WriteMem(4 bytes @ 0xE000EDF0) -- CPU is running -- CPU_WriteMem(4 bytes @ 0xE000EDFC) -- CPU is running -- CPU_ReadMem(4 bytes @ 0xE000EDF0)
 -- CPU_WriteMem(4 bytes @ 0xE0002000) -- CPU_ReadMem(4 bytes @ 0xE000EDFC) -- CPU_ReadMem(4 bytes @ 0xE0001000) (0017ms, 0173ms total)
T2C38 000:226 JLINK_Halt()  returns 0x00 (0000ms, 0173ms total)
T2C38 000:226 JLINK_IsHalted()  returns TRUE (0000ms, 0173ms total)
T2C38 000:226 JLINK_ReadMemU32(0xE000EDF0, 0x0001 Items, ...) -- CPU_ReadMem(4 bytes @ 0xE000EDF0) - Data: 03 00 03 00  returns 0x01 (0001ms, 0174ms total)
T2C38 000:227 JLINK_WriteU32(0xE000EDF0, 0xA05F0003) -- CPU_WriteMem(4 bytes @ 0xE000EDF0)  returns 0x00 (0001ms, 0175ms total)
T2C38 000:228 JLINK_WriteU32(0xE000EDFC, 0x01000000) -- CPU_WriteMem(4 bytes @ 0xE000EDFC)  returns 0x00 (0001ms, 0176ms total)
T2C38 000:238 JLINK_GetHWStatus(...)  returns 0x00 (0000ms, 0176ms total)
T2C38 000:244 JLINK_GetNumBPUnits(Type = 0xFFFFFF00)  returns 0x06 (0000ms, 0176ms total)
T2C38 000:244 JLINK_GetNumBPUnits(Type = 0xF0)  returns 0x2000 (0000ms, 0176ms total)
T2C38 000:244 JLINK_GetNumWPUnits()  returns 0x04 (0000ms, 0176ms total)
T2C38 000:250 JLINK_GetSpeed()  returns 0x7D0 (0000ms, 0176ms total)
T2C38 000:255 JLINK_ReadMemU32(0xE000E004, 0x0001 Items, ...) -- CPU_ReadMem(4 bytes @ 0xE000E004) - Data: 01 00 00 00  returns 0x01 (0001ms, 0177ms total)
T2C38 000:256 JLINK_ReadMemU32(0xE000E004, 0x0001 Items, ...) -- CPU_ReadMem(4 bytes @ 0xE000E004) - Data: 01 00 00 00  returns 0x01 (0001ms, 0178ms total)
T2C38 000:257 JLINK_WriteMem(0xE0001000, 0x001C Bytes, ...) - Data: 01 00 00 00 00 00 00 00 00 00 00 00 00 00 00 00 ... -- CPU_WriteMem(28 bytes @ 0xE0001000)  returns 0x1C (0003ms, 0181ms total)
T2C38 000:260 JLINK_ReadMem (0xE0001000, 0x001C Bytes, ...) -- CPU_ReadMem(28 bytes @ 0xE0001000) - Data: 01 00 00 40 00 00 00 00 00 00 00 00 00 00 00 00 ...  returns 0x00 (0001ms, 0182ms total)
T2C38 000:261 JLINK_Halt()  returns 0x00 (0000ms, 0182ms total)
T2C38 000:261 JLINK_IsHalted()  returns TRUE (0000ms, 0182ms total)
T2C38 000:263 JLINK_WriteMem(0x20000000, 0x0228 Bytes, ...) - Data: 00 BE 0A E0 0D 78 2D 06 68 40 08 24 40 00 00 D3 ... -- CPU_WriteMem(552 bytes @ 0x20000000)  returns 0x228 (0005ms, 0187ms total)
T2C38 000:268 JLINK_WriteReg(R0, 0x00000000)  returns 0x00 (0000ms, 0187ms total)
T2C38 000:268 JLINK_WriteReg(R1, 0x03D09000)  returns 0x00 (0000ms, 0187ms total)
T2C38 000:268 JLINK_WriteReg(R2, 0x00000001)  returns 0x00 (0000ms, 0187ms total)
T2C38 000:268 JLINK_WriteReg(R3, 0x00000000)  returns 0x00 (0000ms, 0187ms total)
T2C38 000:268 JLINK_WriteReg(R4, 0x00000000)  returns 0x00 (0000ms, 0187ms total)
T2C38 000:268 JLINK_WriteReg(R5, 0x00000000)  returns 0x00 (0000ms, 0187ms total)
T2C38 000:268 JLINK_WriteReg(R6, 0x00000000)  returns 0x00 (0000ms, 0187ms total)
T2C38 000:268 JLINK_WriteReg(R7, 0x00000000)  returns 0x00 (0000ms, 0187ms total)
T2C38 000:268 JLINK_WriteReg(R8, 0x00000000)  returns 0x00 (0000ms, 0187ms total)
T2C38 000:268 JLINK_WriteReg(R9, 0x20000224)  returns 0x00 (0000ms, 0187ms total)
T2C38 000:268 JLINK_WriteReg(R10, 0x00000000)  returns 0x00 (0000ms, 0187ms total)
T2C38 000:268 JLINK_WriteReg(R11, 0x00000000)  returns 0x00 (0000ms, 0187ms total)
T2C38 000:268 JLINK_WriteReg(R12, 0x00000000)  returns 0x00 (0000ms, 0187ms total)
T2C38 000:268 JLINK_WriteReg(R13 (SP), 0x20002000)  returns 0x00 (0000ms, 0187ms total)
T2C38 000:268 JLINK_WriteReg(R14, 0x20000001)  returns 0x00 (0000ms, 0187ms total)
T2C38 000:268 JLINK_WriteReg(R15 (PC), 0x2000003C)  returns 0x00 (0000ms, 0187ms total)
T2C38 000:268 JLINK_WriteReg(XPSR, 0x01000000)  returns 0x00 (0000ms, 0187ms total)
T2C38 000:268 JLINK_WriteReg(MSP, 0x20002000)  returns 0x00 (0000ms, 0187ms total)
T2C38 000:268 JLINK_WriteReg(PSP, 0x20002000)  returns 0x00 (0000ms, 0187ms total)
T2C38 000:268 JLINK_WriteReg(CFBP, 0x00000000)  returns 0x00 (0000ms, 0187ms total)
T2C38 000:268 JLINK_SetBPEx(Addr = 0x20000000, Type = 0xFFFFFFF2) -- CPU_ReadMem(2 bytes @ 0x20000000)  returns 0x00000001 (0001ms, 0188ms total)
T2C38 000:269 JLINK_Go() -- CPU_WriteMem(2 bytes @ 0x20000000) -- CPU_ReadMem(4 bytes @ 0xE0001000) -- CPU_WriteMem(4 bytes @ 0xE0002008) -- CPU_WriteMem(4 bytes @ 0xE000200C) -- CPU_WriteMem(4 bytes @ 0xE0002010) -- CPU_WriteMem(4 bytes @ 0xE0002014) -- CPU_WriteMem(4 bytes @ 0xE0002018) -- CPU_WriteMem(4 bytes @ 0xE000201C) -- CPU_WriteMem(4 bytes @ 0xE0001004) (0008ms, 0196ms total)
T2C38 000:277 JLINK_IsHalted() -- CPU_ReadMem(2 bytes @ 0x20000000)  returns TRUE (0005ms, 0201ms total)
T2C38 000:282 JLINK_ReadReg(R15 (PC))  returns 0x20000000 (0000ms, 0196ms total)
T2C38 000:282 JLINK_ClrBPEx(BPHandle = 0x00000001)  returns 0x00 (0000ms, 0196ms total)
T2C38 000:282 JLINK_ReadReg(R0)  returns 0x00000000 (0000ms, 0196ms total)
T2C38 000:283 JLINK_WriteReg(R0, 0x0001F000)  returns 0x00 (0000ms, 0196ms total)
T2C38 000:283 JLINK_WriteReg(R1, 0x00001000)  returns 0x00 (0000ms, 0196ms total)
T2C38 000:283 JLINK_WriteReg(R2, 0x000000FF)  returns 0x00 (0000ms, 0196ms total)
T2C38 000:283 JLINK_WriteReg(R3, 0x00000000)  returns 0x00 (0000ms, 0196ms total)
T2C38 000:283 JLINK_WriteReg(R4, 0x00000000)  returns 0x00 (0000ms, 0196ms total)
T2C38 000:283 JLINK_WriteReg(R5, 0x00000000)  returns 0x00 (0000ms, 0196ms total)
T2C38 000:283 JLINK_WriteReg(R6, 0x00000000)  returns 0x00 (0000ms, 0196ms total)
T2C38 000:283 JLINK_WriteReg(R7, 0x00000000)  returns 0x00 (0000ms, 0196ms total)
T2C38 000:283 JLINK_WriteReg(R8, 0x00000000)  returns 0x00 (0000ms, 0196ms total)
T2C38 000:283 JLINK_WriteReg(R9, 0x20000224)  returns 0x00 (0000ms, 0196ms total)
T2C38 000:283 JLINK_WriteReg(R10, 0x00000000)  returns 0x00 (0000ms, 0196ms total)
T2C38 000:283 JLINK_WriteReg(R11, 0x00000000)  returns 0x00 (0000ms, 0196ms total)
T2C38 000:283 JLINK_WriteReg(R12, 0x00000000)  returns 0x00 (0000ms, 0196ms total)
T2C38 000:283 JLINK_WriteReg(R13 (SP), 0x20002000)  returns 0x00 (0000ms, 0196ms total)
T2C38 000:283 JLINK_WriteReg(R14, 0x20000001)  returns 0x00 (0000ms, 0196ms total)
T2C38 000:283 JLINK_WriteReg(R15 (PC), 0x20000110)  returns 0x00 (0000ms, 0196ms total)
T2C38 000:283 JLINK_WriteReg(XPSR, 0x01000000)  returns 0x00 (0000ms, 0196ms total)
T2C38 000:283 JLINK_WriteReg(MSP, 0x20002000)  returns 0x00 (0000ms, 0196ms total)
T2C38 000:283 JLINK_WriteReg(PSP, 0x20002000)  returns 0x00 (0000ms, 0196ms total)
T2C38 000:283 JLINK_WriteReg(CFBP, 0x00000000)  returns 0x00 (0000ms, 0196ms total)
T2C38 000:283 JLINK_SetBPEx(Addr = 0x20000000, Type = 0xFFFFFFF2)  returns 0x00000002 (0000ms, 0196ms total)
T2C38 000:283 JLINK_Go() -- CPU_ReadMem(4 bytes @ 0xE0001000) (0004ms, 0200ms total)
T2C38 000:287 JLINK_IsHalted() -- CPU_ReadMem(2 bytes @ 0x20000000)  returns TRUE (0005ms, 0205ms total)
T2C38 000:292 JLINK_ReadReg(R15 (PC))  returns 0x20000000 (0000ms, 0200ms total)
T2C38 000:292 JLINK_ClrBPEx(BPHandle = 0x00000002)  returns 0x00 (0000ms, 0200ms total)
T2C38 000:292 JLINK_ReadReg(R0)  returns 0x00000001 (0000ms, 0200ms total)
T2C38 000:292 JLINK_WriteReg(R0, 0x0001F000)  returns 0x00 (0000ms, 0200ms total)
T2C38 000:292 JLINK_WriteReg(R1, 0x00001000)  returns 0x00 (0000ms, 0200ms total)
T2C38 000:292 JLINK_WriteReg(R2, 0x000000FF)  returns 0x00 (0000ms, 0200ms total)
T2C38 000:292 JLINK_WriteReg(R3, 0x00000000)  returns 0x00 (0000ms, 0200ms total)
T2C38 000:292 JLINK_WriteReg(R4, 0x00000000)  returns 0x00 (0000ms, 0200ms total)
T2C38 000:292 JLINK_WriteReg(R5, 0x00000000)  returns 0x00 (0000ms, 0200ms total)
T2C38 000:292 JLINK_WriteReg(R6, 0x00000000)  returns 0x00 (0000ms, 0200ms total)
T2C38 000:292 JLINK_WriteReg(R7, 0x00000000)  returns 0x00 (0000ms, 0200ms total)
T2C38 000:292 JLINK_WriteReg(R8, 0x00000000)  returns 0x00 (0000ms, 0200ms total)
T2C38 000:292 JLINK_WriteReg(R9, 0x20000224)  returns 0x00 (0000ms, 0200ms total)
T2C38 000:292 JLINK_WriteReg(R10, 0x00000000)  returns 0x00 (0000ms, 0200ms total)
T2C38 000:292 JLINK_WriteReg(R11, 0x00000000)  returns 0x00 (0000ms, 0200ms total)
T2C38 000:292 JLINK_WriteReg(R12, 0x00000000)  returns 0x00 (0000ms, 0200ms total)
T2C38 000:292 JLINK_WriteReg(R13 (SP), 0x20002000)  returns 0x00 (0001ms, 0201ms total)
T2C38 000:293 JLINK_WriteReg(R14, 0x20000001)  returns 0x00 (0000ms, 0201ms total)
T2C38 000:293 JLINK_WriteReg(R15 (PC), 0x200000CE)  returns 0x00 (0000ms, 0201ms total)
T2C38 000:293 JLINK_WriteReg(XPSR, 0x01000000)  returns 0x00 (0000ms, 0201ms total)
T2C38 000:293 JLINK_WriteReg(MSP, 0x20002000)  returns 0x00 (0000ms, 0201ms total)
T2C38 000:293 JLINK_WriteReg(PSP, 0x20002000)  returns 0x00 (0000ms, 0201ms total)
T2C38 000:293 JLINK_WriteReg(CFBP, 0x00000000)  returns 0x00 (0000ms, 0201ms total)
T2C38 000:293 JLINK_SetBPEx(Addr = 0x20000000, Type = 0xFFFFFFF2)  returns 0x00000003 (0000ms, 0201ms total)
T2C38 000:293 JLINK_Go() -- CPU_ReadMem(4 bytes @ 0xE0001000) (0004ms, 0205ms total)
T2C38 000:297 JLINK_IsHalted()  returns FALSE (0000ms, 0205ms total)
T2C38 000:367 JLINK_IsHalted() -- CPU_ReadMem(2 bytes @ 0x20000000)  returns TRUE (0005ms, 0210ms total)
T2C38 000:372 JLINK_ReadReg(R15 (PC))  returns 0x20000000 (0000ms, 0205ms total)
T2C38 000:372 JLINK_ClrBPEx(BPHandle = 0x00000003)  returns 0x00 (0000ms, 0205ms total)
T2C38 000:372 JLINK_ReadReg(R0)  returns 0x00000000 (0000ms, 0205ms total)
T2C38 000:372 JLINK_WriteReg(R0, 0x00020000)  returns 0x00 (0000ms, 0205ms total)
T2C38 000:372 JLINK_WriteReg(R1, 0x00001000)  returns 0x00 (0000ms, 0205ms total)
T2C38 000:372 JLINK_WriteReg(R2, 0x000000FF)  returns 0x00 (0000ms, 0205ms total)
T2C38 000:372 JLINK_WriteReg(R3, 0x00000000)  returns 0x00 (0000ms, 0205ms total)
T2C38 000:372 JLINK_WriteReg(R4, 0x00000000)  returns 0x00 (0000ms, 0205ms total)
T2C38 000:372 JLINK_WriteReg(R5, 0x00000000)  returns 0x00 (0000ms, 0205ms total)
T2C38 000:372 JLINK_WriteReg(R6, 0x00000000)  returns 0x00 (0000ms, 0205ms total)
T2C38 000:372 JLINK_WriteReg(R7, 0x00000000)  returns 0x00 (0000ms, 0205ms total)
T2C38 000:372 JLINK_WriteReg(R8, 0x00000000)  returns 0x00 (0000ms, 0205ms total)
T2C38 000:372 JLINK_WriteReg(R9, 0x20000224)  returns 0x00 (0000ms, 0205ms total)
T2C38 000:372 JLINK_WriteReg(R10, 0x00000000)  returns 0x00 (0000ms, 0205ms total)
T2C38 000:372 JLINK_WriteReg(R11, 0x00000000)  returns 0x00 (0000ms, 0205ms total)
T2C38 000:372 JLINK_WriteReg(R12, 0x00000000)  returns 0x00 (0000ms, 0205ms total)
T2C38 000:372 JLINK_WriteReg(R13 (SP), 0x20002000)  returns 0x00 (0000ms, 0205ms total)
T2C38 000:372 JLINK_WriteReg(R14, 0x20000001)  returns 0x00 (0001ms, 0206ms total)
T2C38 000:373 JLINK_WriteReg(R15 (PC), 0x20000110)  returns 0x00 (0000ms, 0206ms total)
T2C38 000:373 JLINK_WriteReg(XPSR, 0x01000000)  returns 0x00 (0000ms, 0206ms total)
T2C38 000:373 JLINK_WriteReg(MSP, 0x20002000)  returns 0x00 (0000ms, 0206ms total)
T2C38 000:373 JLINK_WriteReg(PSP, 0x20002000)  returns 0x00 (0000ms, 0206ms total)
T2C38 000:373 JLINK_WriteReg(CFBP, 0x00000000)  returns 0x00 (0000ms, 0206ms total)
T2C38 000:373 JLINK_SetBPEx(Addr = 0x20000000, Type = 0xFFFFFFF2)  returns 0x00000004 (0000ms, 0206ms total)
T2C38 000:373 JLINK_Go() -- CPU_ReadMem(4 bytes @ 0xE0001000) (0004ms, 0210ms total)
T2C38 000:377 JLINK_IsHalted() -- CPU_ReadMem(2 bytes @ 0x20000000)  returns TRUE (0004ms, 0214ms total)
T2C38 000:381 JLINK_ReadReg(R15 (PC))  returns 0x20000000 (0000ms, 0210ms total)
T2C38 000:381 JLINK_ClrBPEx(BPHandle = 0x00000004)  returns 0x00 (0000ms, 0210ms total)
T2C38 000:381 JLINK_ReadReg(R0)  returns 0x00000001 (0000ms, 0210ms total)
T2C38 000:381 JLINK_WriteReg(R0, 0x00020000)  returns 0x00 (0000ms, 0210ms total)
T2C38 000:381 JLINK_WriteReg(R1, 0x00001000)  returns 0x00 (0000ms, 0210ms total)
T2C38 000:381 JLINK_WriteReg(R2, 0x000000FF)  returns 0x00 (0000ms, 0210ms total)
T2C38 000:381 JLINK_WriteReg(R3, 0x00000000)  returns 0x00 (0000ms, 0210ms total)
T2C38 000:381 JLINK_WriteReg(R4, 0x00000000)  returns 0x00 (0000ms, 0210ms total)
T2C38 000:381 JLINK_WriteReg(R5, 0x00000000)  returns 0x00 (0001ms, 0211ms total)
T2C38 000:382 JLINK_WriteReg(R6, 0x00000000)  returns 0x00 (0000ms, 0211ms total)
T2C38 000:382 JLINK_WriteReg(R7, 0x00000000)  returns 0x00 (0000ms, 0211ms total)
T2C38 000:382 JLINK_WriteReg(R8, 0x00000000)  returns 0x00 (0000ms, 0211ms total)
T2C38 000:382 JLINK_WriteReg(R9, 0x20000224)  returns 0x00 (0000ms, 0211ms total)
T2C38 000:382 JLINK_WriteReg(R10, 0x00000000)  returns 0x00 (0000ms, 0211ms total)
T2C38 000:382 JLINK_WriteReg(R11, 0x00000000)  returns 0x00 (0000ms, 0211ms total)
T2C38 000:382 JLINK_WriteReg(R12, 0x00000000)  returns 0x00 (0000ms, 0211ms total)
T2C38 000:382 JLINK_WriteReg(R13 (SP), 0x20002000)  returns 0x00 (0000ms, 0211ms total)
T2C38 000:382 JLINK_WriteReg(R14, 0x20000001)  returns 0x00 (0000ms, 0211ms total)
T2C38 000:382 JLINK_WriteReg(R15 (PC), 0x200000CE)  returns 0x00 (0000ms, 0211ms total)
T2C38 000:382 JLINK_WriteReg(XPSR, 0x01000000)  returns 0x00 (0000ms, 0211ms total)
T2C38 000:382 JLINK_WriteReg(MSP, 0x20002000)  returns 0x00 (0000ms, 0211ms total)
T2C38 000:382 JLINK_WriteReg(PSP, 0x20002000)  returns 0x00 (0000ms, 0211ms total)
T2C38 000:382 JLINK_WriteReg(CFBP, 0x00000000)  returns 0x00 (0000ms, 0211ms total)
T2C38 000:382 JLINK_SetBPEx(Addr = 0x20000000, Type = 0xFFFFFFF2)  returns 0x00000005 (0000ms, 0211ms total)
T2C38 000:382 JLINK_Go() -- CPU_ReadMem(4 bytes @ 0xE0001000) (0002ms, 0213ms total)
T2C38 000:384 JLINK_IsHalted()  returns FALSE (0002ms, 0215ms total)
T2C38 000:402 JLINK_IsHalted() -- CPU_ReadMem(2 bytes @ 0x20000000)  returns TRUE (0005ms, 0218ms total)
T2C38 000:407 JLINK_ReadReg(R15 (PC))  returns 0x20000000 (0000ms, 0213ms total)
T2C38 000:407 JLINK_ClrBPEx(BPHandle = 0x00000005)  returns 0x00 (0000ms, 0213ms total)
T2C38 000:408 JLINK_ReadReg(R0)  returns 0x00000000 (0000ms, 0214ms total)
T2C38 000:408 JLINK_WriteReg(R0, 0x00021000)  returns 0x00 (0000ms, 0214ms total)
T2C38 000:408 JLINK_WriteReg(R1, 0x00001000)  returns 0x00 (0000ms, 0214ms total)
T2C38 000:408 JLINK_WriteReg(R2, 0x000000FF)  returns 0x00 (0000ms, 0214ms total)
T2C38 000:408 JLINK_WriteReg(R3, 0x00000000)  returns 0x00 (0000ms, 0214ms total)
T2C38 000:408 JLINK_WriteReg(R4, 0x00000000)  returns 0x00 (0000ms, 0214ms total)
T2C38 000:408 JLINK_WriteReg(R5, 0x00000000)  returns 0x00 (0000ms, 0214ms total)
T2C38 000:408 JLINK_WriteReg(R6, 0x00000000)  returns 0x00 (0000ms, 0214ms total)
T2C38 000:408 JLINK_WriteReg(R7, 0x00000000)  returns 0x00 (0000ms, 0214ms total)
T2C38 000:408 JLINK_WriteReg(R8, 0x00000000)  returns 0x00 (0000ms, 0214ms total)
T2C38 000:408 JLINK_WriteReg(R9, 0x20000224)  returns 0x00 (0000ms, 0214ms total)
T2C38 000:408 JLINK_WriteReg(R10, 0x00000000)  returns 0x00 (0000ms, 0214ms total)
T2C38 000:408 JLINK_WriteReg(R11, 0x00000000)  returns 0x00 (0000ms, 0214ms total)
T2C38 000:408 JLINK_WriteReg(R12, 0x00000000)  returns 0x00 (0000ms, 0214ms total)
T2C38 000:408 JLINK_WriteReg(R13 (SP), 0x20002000)  returns 0x00 (0000ms, 0214ms total)
T2C38 000:408 JLINK_WriteReg(R14, 0x20000001)  returns 0x00 (0000ms, 0214ms total)
T2C38 000:408 JLINK_WriteReg(R15 (PC), 0x20000110)  returns 0x00 (0000ms, 0214ms total)
T2C38 000:408 JLINK_WriteReg(XPSR, 0x01000000)  returns 0x00 (0000ms, 0214ms total)
T2C38 000:408 JLINK_WriteReg(MSP, 0x20002000)  returns 0x00 (0000ms, 0214ms total)
T2C38 000:408 JLINK_WriteReg(PSP, 0x20002000)  returns 0x00 (0000ms, 0214ms total)
T2C38 000:408 JLINK_WriteReg(CFBP, 0x00000000)  returns 0x00 (0000ms, 0214ms total)
T2C38 000:408 JLINK_SetBPEx(Addr = 0x20000000, Type = 0xFFFFFFF2)  returns 0x00000006 (0000ms, 0214ms total)
T2C38 000:408 JLINK_Go() -- CPU_ReadMem(4 bytes @ 0xE0001000) (0004ms, 0218ms total)
T2C38 000:412 JLINK_IsHalted() -- CPU_ReadMem(2 bytes @ 0x20000000)  returns TRUE (0004ms, 0222ms total)
T2C38 000:416 JLINK_ReadReg(R15 (PC))  returns 0x20000000 (0000ms, 0218ms total)
T2C38 000:416 JLINK_ClrBPEx(BPHandle = 0x00000006)  returns 0x00 (0000ms, 0218ms total)
T2C38 000:416 JLINK_ReadReg(R0)  returns 0x00000001 (0000ms, 0218ms total)
T2C38 000:416 JLINK_WriteReg(R0, 0x00021000)  returns 0x00 (0000ms, 0218ms total)
T2C38 000:416 JLINK_WriteReg(R1, 0x00001000)  returns 0x00 (0000ms, 0218ms total)
T2C38 000:416 JLINK_WriteReg(R2, 0x000000FF)  returns 0x00 (0000ms, 0218ms total)
T2C38 000:416 JLINK_WriteReg(R3, 0x00000000)  returns 0x00 (0000ms, 0218ms total)
T2C38 000:416 JLINK_WriteReg(R4, 0x00000000)  returns 0x00 (0000ms, 0218ms total)
T2C38 000:416 JLINK_WriteReg(R5, 0x00000000)  returns 0x00 (0000ms, 0218ms total)
T2C38 000:416 JLINK_WriteReg(R6, 0x00000000)  returns 0x00 (0001ms, 0219ms total)
T2C38 000:417 JLINK_WriteReg(R7, 0x00000000)  returns 0x00 (0000ms, 0219ms total)
T2C38 000:417 JLINK_WriteReg(R8, 0x00000000)  returns 0x00 (0000ms, 0219ms total)
T2C38 000:417 JLINK_WriteReg(R9, 0x20000224)  returns 0x00 (0000ms, 0219ms total)
T2C38 000:417 JLINK_WriteReg(R10, 0x00000000)  returns 0x00 (0000ms, 0219ms total)
T2C38 000:417 JLINK_WriteReg(R11, 0x00000000)  returns 0x00 (0000ms, 0219ms total)
T2C38 000:417 JLINK_WriteReg(R12, 0x00000000)  returns 0x00 (0000ms, 0219ms total)
T2C38 000:417 JLINK_WriteReg(R13 (SP), 0x20002000)  returns 0x00 (0000ms, 0219ms total)
T2C38 000:417 JLINK_WriteReg(R14, 0x20000001)  returns 0x00 (0000ms, 0219ms total)
T2C38 000:417 JLINK_WriteReg(R15 (PC), 0x200000CE)  returns 0x00 (0000ms, 0219ms total)
T2C38 000:417 JLINK_WriteReg(XPSR, 0x01000000)  returns 0x00 (0000ms, 0219ms total)
T2C38 000:417 JLINK_WriteReg(MSP, 0x20002000)  returns 0x00 (0000ms, 0219ms total)
T2C38 000:417 JLINK_WriteReg(PSP, 0x20002000)  returns 0x00 (0000ms, 0219ms total)
T2C38 000:417 JLINK_WriteReg(CFBP, 0x00000000)  returns 0x00 (0000ms, 0219ms total)
T2C38 000:417 JLINK_SetBPEx(Addr = 0x20000000, Type = 0xFFFFFFF2)  returns 0x00000007 (0000ms, 0219ms total)
T2C38 000:417 JLINK_Go() -- CPU_ReadMem(4 bytes @ 0xE0001000) (0002ms, 0221ms total)
T2C38 000:419 JLINK_IsHalted()  returns FALSE (0002ms, 0223ms total)
T2C38 000:428 JLINK_IsHalted() -- CPU_ReadMem(2 bytes @ 0x20000000)  returns TRUE (0004ms, 0225ms total)
T2C38 000:432 JLINK_ReadReg(R15 (PC))  returns 0x20000000 (0000ms, 0221ms total)
T2C38 000:432 JLINK_ClrBPEx(BPHandle = 0x00000007)  returns 0x00 (0001ms, 0222ms total)
T2C38 000:433 JLINK_ReadReg(R0)  returns 0x00000000 (0000ms, 0222ms total)
T2C38 000:433 JLINK_WriteReg(R0, 0x00022000)  returns 0x00 (0000ms, 0222ms total)
T2C38 000:433 JLINK_WriteReg(R1, 0x00001000)  returns 0x00 (0000ms, 0222ms total)
T2C38 000:433 JLINK_WriteReg(R2, 0x000000FF)  returns 0x00 (0000ms, 0222ms total)
T2C38 000:433 JLINK_WriteReg(R3, 0x00000000)  returns 0x00 (0000ms, 0222ms total)
T2C38 000:433 JLINK_WriteReg(R4, 0x00000000)  returns 0x00 (0000ms, 0222ms total)
T2C38 000:433 JLINK_WriteReg(R5, 0x00000000)  returns 0x00 (0000ms, 0222ms total)
T2C38 000:433 JLINK_WriteReg(R6, 0x00000000)  returns 0x00 (0000ms, 0222ms total)
T2C38 000:433 JLINK_WriteReg(R7, 0x00000000)  returns 0x00 (0000ms, 0222ms total)
T2C38 000:433 JLINK_WriteReg(R8, 0x00000000)  returns 0x00 (0000ms, 0222ms total)
T2C38 000:433 JLINK_WriteReg(R9, 0x20000224)  returns 0x00 (0000ms, 0222ms total)
T2C38 000:433 JLINK_WriteReg(R10, 0x00000000)  returns 0x00 (0000ms, 0222ms total)
T2C38 000:433 JLINK_WriteReg(R11, 0x00000000)  returns 0x00 (0000ms, 0222ms total)
T2C38 000:433 JLINK_WriteReg(R12, 0x00000000)  returns 0x00 (0000ms, 0222ms total)
T2C38 000:433 JLINK_WriteReg(R13 (SP), 0x20002000)  returns 0x00 (0000ms, 0222ms total)
T2C38 000:433 JLINK_WriteReg(R14, 0x20000001)  returns 0x00 (0000ms, 0222ms total)
T2C38 000:433 JLINK_WriteReg(R15 (PC), 0x20000110)  returns 0x00 (0000ms, 0222ms total)
T2C38 000:433 JLINK_WriteReg(XPSR, 0x01000000)  returns 0x00 (0000ms, 0222ms total)
T2C38 000:433 JLINK_WriteReg(MSP, 0x20002000)  returns 0x00 (0000ms, 0222ms total)
T2C38 000:433 JLINK_WriteReg(PSP, 0x20002000)  returns 0x00 (0000ms, 0222ms total)
T2C38 000:433 JLINK_WriteReg(CFBP, 0x00000000)  returns 0x00 (0000ms, 0222ms total)
T2C38 000:433 JLINK_SetBPEx(Addr = 0x20000000, Type = 0xFFFFFFF2)  returns 0x00000008 (0000ms, 0222ms total)
T2C38 000:433 JLINK_Go() -- CPU_ReadMem(4 bytes @ 0xE0001000) (0004ms, 0226ms total)
T2C38 000:437 JLINK_IsHalted() -- CPU_ReadMem(2 bytes @ 0x20000000)  returns TRUE (0004ms, 0230ms total)
T2C38 000:441 JLINK_ReadReg(R15 (PC))  returns 0x20000000 (0000ms, 0226ms total)
T2C38 000:441 JLINK_ClrBPEx(BPHandle = 0x00000008)  returns 0x00 (0000ms, 0226ms total)
T2C38 000:441 JLINK_ReadReg(R0)  returns 0x00000001 (0001ms, 0227ms total)
T2C38 000:442 JLINK_WriteReg(R0, 0x00022000)  returns 0x00 (0000ms, 0227ms total)
T2C38 000:442 JLINK_WriteReg(R1, 0x00001000)  returns 0x00 (0000ms, 0227ms total)
T2C38 000:442 JLINK_WriteReg(R2, 0x000000FF)  returns 0x00 (0000ms, 0227ms total)
T2C38 000:442 JLINK_WriteReg(R3, 0x00000000)  returns 0x00 (0000ms, 0227ms total)
T2C38 000:442 JLINK_WriteReg(R4, 0x00000000)  returns 0x00 (0000ms, 0227ms total)
T2C38 000:442 JLINK_WriteReg(R5, 0x00000000)  returns 0x00 (0000ms, 0227ms total)
T2C38 000:442 JLINK_WriteReg(R6, 0x00000000)  returns 0x00 (0000ms, 0227ms total)
T2C38 000:442 JLINK_WriteReg(R7, 0x00000000)  returns 0x00 (0000ms, 0227ms total)
T2C38 000:442 JLINK_WriteReg(R8, 0x00000000)  returns 0x00 (0000ms, 0227ms total)
T2C38 000:442 JLINK_WriteReg(R9, 0x20000224)  returns 0x00 (0000ms, 0227ms total)
T2C38 000:442 JLINK_WriteReg(R10, 0x00000000)  returns 0x00 (0000ms, 0227ms total)
T2C38 000:442 JLINK_WriteReg(R11, 0x00000000)  returns 0x00 (0000ms, 0227ms total)
T2C38 000:442 JLINK_WriteReg(R12, 0x00000000)  returns 0x00 (0000ms, 0227ms total)
T2C38 000:442 JLINK_WriteReg(R13 (SP), 0x20002000)  returns 0x00 (0000ms, 0227ms total)
T2C38 000:442 JLINK_WriteReg(R14, 0x20000001)  returns 0x00 (0000ms, 0227ms total)
T2C38 000:442 JLINK_WriteReg(R15 (PC), 0x200000CE)  returns 0x00 (0000ms, 0227ms total)
T2C38 000:442 JLINK_WriteReg(XPSR, 0x01000000)  returns 0x00 (0000ms, 0227ms total)
T2C38 000:442 JLINK_WriteReg(MSP, 0x20002000)  returns 0x00 (0000ms, 0227ms total)
T2C38 000:442 JLINK_WriteReg(PSP, 0x20002000)  returns 0x00 (0000ms, 0227ms total)
T2C38 000:442 JLINK_WriteReg(CFBP, 0x00000000)  returns 0x00 (0000ms, 0227ms total)
T2C38 000:442 JLINK_SetBPEx(Addr = 0x20000000, Type = 0xFFFFFFF2)  returns 0x00000009 (0000ms, 0227ms total)
T2C38 000:442 JLINK_Go() -- CPU_ReadMem(4 bytes @ 0xE0001000) (0002ms, 0229ms total)
T2C38 000:444 JLINK_IsHalted()  returns FALSE (0002ms, 0231ms total)
T2C38 000:490 JLINK_IsHalted() -- CPU_ReadMem(2 bytes @ 0x20000000)  returns TRUE (0005ms, 0234ms total)
T2C38 000:495 JLINK_ReadReg(R15 (PC))  returns 0x20000000 (0000ms, 0229ms total)
T2C38 000:495 JLINK_ClrBPEx(BPHandle = 0x00000009)  returns 0x00 (0000ms, 0229ms total)
T2C38 000:495 JLINK_ReadReg(R0)  returns 0x00000000 (0000ms, 0229ms total)
T2C38 000:496 JLINK_WriteReg(R0, 0x00023000)  returns 0x00 (0000ms, 0229ms total)
T2C38 000:496 JLINK_WriteReg(R1, 0x00001000)  returns 0x00 (0000ms, 0229ms total)
T2C38 000:496 JLINK_WriteReg(R2, 0x000000FF)  returns 0x00 (0000ms, 0229ms total)
T2C38 000:496 JLINK_WriteReg(R3, 0x00000000)  returns 0x00 (0000ms, 0229ms total)
T2C38 000:496 JLINK_WriteReg(R4, 0x00000000)  returns 0x00 (0000ms, 0229ms total)
T2C38 000:496 JLINK_WriteReg(R5, 0x00000000)  returns 0x00 (0000ms, 0229ms total)
T2C38 000:496 JLINK_WriteReg(R6, 0x00000000)  returns 0x00 (0000ms, 0229ms total)
T2C38 000:496 JLINK_WriteReg(R7, 0x00000000)  returns 0x00 (0000ms, 0229ms total)
T2C38 000:496 JLINK_WriteReg(R8, 0x00000000)  returns 0x00 (0000ms, 0229ms total)
T2C38 000:496 JLINK_WriteReg(R9, 0x20000224)  returns 0x00 (0000ms, 0229ms total)
T2C38 000:496 JLINK_WriteReg(R10, 0x00000000)  returns 0x00 (0000ms, 0229ms total)
T2C38 000:496 JLINK_WriteReg(R11, 0x00000000)  returns 0x00 (0000ms, 0229ms total)
T2C38 000:496 JLINK_WriteReg(R12, 0x00000000)  returns 0x00 (0000ms, 0229ms total)
T2C38 000:496 JLINK_WriteReg(R13 (SP), 0x20002000)  returns 0x00 (0000ms, 0229ms total)
T2C38 000:496 JLINK_WriteReg(R14, 0x20000001)  returns 0x00 (0000ms, 0229ms total)
T2C38 000:496 JLINK_WriteReg(R15 (PC), 0x20000110)  returns 0x00 (0000ms, 0229ms total)
T2C38 000:496 JLINK_WriteReg(XPSR, 0x01000000)  returns 0x00 (0000ms, 0229ms total)
T2C38 000:496 JLINK_WriteReg(MSP, 0x20002000)  returns 0x00 (0000ms, 0229ms total)
T2C38 000:496 JLINK_WriteReg(PSP, 0x20002000)  returns 0x00 (0000ms, 0229ms total)
T2C38 000:496 JLINK_WriteReg(CFBP, 0x00000000)  returns 0x00 (0000ms, 0229ms total)
T2C38 000:496 JLINK_SetBPEx(Addr = 0x20000000, Type = 0xFFFFFFF2)  returns 0x0000000A (0000ms, 0229ms total)
T2C38 000:496 JLINK_Go() -- CPU_ReadMem(4 bytes @ 0xE0001000) (0004ms, 0233ms total)
T2C38 000:500 JLINK_IsHalted() -- CPU_ReadMem(2 bytes @ 0x20000000)  returns TRUE (0004ms, 0237ms total)
T2C38 000:504 JLINK_ReadReg(R15 (PC))  returns 0x20000000 (0000ms, 0233ms total)
T2C38 000:504 JLINK_ClrBPEx(BPHandle = 0x0000000A)  returns 0x00 (0000ms, 0233ms total)
T2C38 000:504 JLINK_ReadReg(R0)  returns 0x00000001 (0000ms, 0233ms total)
T2C38 000:504 JLINK_WriteReg(R0, 0x00023000)  returns 0x00 (0000ms, 0233ms total)
T2C38 000:504 JLINK_WriteReg(R1, 0x00001000)  returns 0x00 (0000ms, 0233ms total)
T2C38 000:504 JLINK_WriteReg(R2, 0x000000FF)  returns 0x00 (0000ms, 0233ms total)
T2C38 000:504 JLINK_WriteReg(R3, 0x00000000)  returns 0x00 (0000ms, 0233ms total)
T2C38 000:504 JLINK_WriteReg(R4, 0x00000000)  returns 0x00 (0000ms, 0233ms total)
T2C38 000:504 JLINK_WriteReg(R5, 0x00000000)  returns 0x00 (0000ms, 0233ms total)
T2C38 000:504 JLINK_WriteReg(R6, 0x00000000)  returns 0x00 (0001ms, 0234ms total)
T2C38 000:505 JLINK_WriteReg(R7, 0x00000000)  returns 0x00 (0000ms, 0234ms total)
T2C38 000:505 JLINK_WriteReg(R8, 0x00000000)  returns 0x00 (0000ms, 0234ms total)
T2C38 000:505 JLINK_WriteReg(R9, 0x20000224)  returns 0x00 (0000ms, 0234ms total)
T2C38 000:505 JLINK_WriteReg(R10, 0x00000000)  returns 0x00 (0000ms, 0234ms total)
T2C38 000:505 JLINK_WriteReg(R11, 0x00000000)  returns 0x00 (0000ms, 0234ms total)
T2C38 000:505 JLINK_WriteReg(R12, 0x00000000)  returns 0x00 (0000ms, 0234ms total)
T2C38 000:505 JLINK_WriteReg(R13 (SP), 0x20002000)  returns 0x00 (0000ms, 0234ms total)
T2C38 000:505 JLINK_WriteReg(R14, 0x20000001)  returns 0x00 (0000ms, 0234ms total)
T2C38 000:505 JLINK_WriteReg(R15 (PC), 0x200000CE)  returns 0x00 (0000ms, 0234ms total)
T2C38 000:505 JLINK_WriteReg(XPSR, 0x01000000)  returns 0x00 (0000ms, 0234ms total)
T2C38 000:505 JLINK_WriteReg(MSP, 0x20002000)  returns 0x00 (0000ms, 0234ms total)
T2C38 000:505 JLINK_WriteReg(PSP, 0x20002000)  returns 0x00 (0000ms, 0234ms total)
T2C38 000:505 JLINK_WriteReg(CFBP, 0x00000000)  returns 0x00 (0000ms, 0234ms total)
T2C38 000:505 JLINK_SetBPEx(Addr = 0x20000000, Type = 0xFFFFFFF2)  returns 0x0000000B (0000ms, 0234ms total)
T2C38 000:505 JLINK_Go() -- CPU_ReadMem(4 bytes @ 0xE0001000) (0002ms, 0236ms total)
T2C38 000:508 JLINK_IsHalted()  returns FALSE (0001ms, 0237ms total)
T2C38 000:513 JLINK_IsHalted() -- CPU_ReadMem(2 bytes @ 0x20000000)  returns TRUE (0004ms, 0240ms total)
T2C38 000:517 JLINK_ReadReg(R15 (PC))  returns 0x20000000 (0000ms, 0236ms total)
T2C38 000:517 JLINK_ClrBPEx(BPHandle = 0x0000000B)  returns 0x00 (0000ms, 0236ms total)
T2C38 000:517 JLINK_ReadReg(R0)  returns 0x00000000 (0000ms, 0236ms total)
T2C38 000:518 JLINK_WriteReg(R0, 0x00024000)  returns 0x00 (0000ms, 0236ms total)
T2C38 000:518 JLINK_WriteReg(R1, 0x00001000)  returns 0x00 (0000ms, 0236ms total)
T2C38 000:518 JLINK_WriteReg(R2, 0x000000FF)  returns 0x00 (0000ms, 0236ms total)
T2C38 000:518 JLINK_WriteReg(R3, 0x00000000)  returns 0x00 (0000ms, 0236ms total)
T2C38 000:518 JLINK_WriteReg(R4, 0x00000000)  returns 0x00 (0000ms, 0236ms total)
T2C38 000:518 JLINK_WriteReg(R5, 0x00000000)  returns 0x00 (0000ms, 0236ms total)
T2C38 000:518 JLINK_WriteReg(R6, 0x00000000)  returns 0x00 (0000ms, 0236ms total)
T2C38 000:518 JLINK_WriteReg(R7, 0x00000000)  returns 0x00 (0000ms, 0236ms total)
T2C38 000:518 JLINK_WriteReg(R8, 0x00000000)  returns 0x00 (0000ms, 0236ms total)
T2C38 000:518 JLINK_WriteReg(R9, 0x20000224)  returns 0x00 (0000ms, 0236ms total)
T2C38 000:518 JLINK_WriteReg(R10, 0x00000000)  returns 0x00 (0000ms, 0236ms total)
T2C38 000:518 JLINK_WriteReg(R11, 0x00000000)  returns 0x00 (0000ms, 0236ms total)
T2C38 000:518 JLINK_WriteReg(R12, 0x00000000)  returns 0x00 (0000ms, 0236ms total)
T2C38 000:518 JLINK_WriteReg(R13 (SP), 0x20002000)  returns 0x00 (0000ms, 0236ms total)
T2C38 000:518 JLINK_WriteReg(R14, 0x20000001)  returns 0x00 (0000ms, 0236ms total)
T2C38 000:518 JLINK_WriteReg(R15 (PC), 0x20000110)  returns 0x00 (0000ms, 0236ms total)
T2C38 000:518 JLINK_WriteReg(XPSR, 0x01000000)  returns 0x00 (0000ms, 0236ms total)
T2C38 000:518 JLINK_WriteReg(MSP, 0x20002000)  returns 0x00 (0000ms, 0236ms total)
T2C38 000:518 JLINK_WriteReg(PSP, 0x20002000)  returns 0x00 (0000ms, 0236ms total)
T2C38 000:518 JLINK_WriteReg(CFBP, 0x00000000)  returns 0x00 (0000ms, 0236ms total)
T2C38 000:518 JLINK_SetBPEx(Addr = 0x20000000, Type = 0xFFFFFFF2)  returns 0x0000000C (0000ms, 0236ms total)
T2C38 000:518 JLINK_Go() -- CPU_ReadMem(4 bytes @ 0xE0001000) (0004ms, 0240ms total)
T2C38 000:522 JLINK_IsHalted() -- CPU_ReadMem(2 bytes @ 0x20000000)  returns TRUE (0004ms, 0244ms total)
T2C38 000:526 JLINK_ReadReg(R15 (PC))  returns 0x20000000 (0000ms, 0240ms total)
T2C38 000:526 JLINK_ClrBPEx(BPHandle = 0x0000000C)  returns 0x00 (0000ms, 0240ms total)
T2C38 000:526 JLINK_ReadReg(R0)  returns 0x00000001 (0000ms, 0240ms total)
T2C38 000:526 JLINK_WriteReg(R0, 0x00024000)  returns 0x00 (0000ms, 0240ms total)
T2C38 000:526 JLINK_WriteReg(R1, 0x00001000)  returns 0x00 (0000ms, 0240ms total)
T2C38 000:526 JLINK_WriteReg(R2, 0x000000FF)  returns 0x00 (0000ms, 0240ms total)
T2C38 000:526 JLINK_WriteReg(R3, 0x00000000)  returns 0x00 (0000ms, 0240ms total)
T2C38 000:526 JLINK_WriteReg(R4, 0x00000000)  returns 0x00 (0000ms, 0240ms total)
T2C38 000:527 JLINK_WriteReg(R5, 0x00000000)  returns 0x00 (0000ms, 0241ms total)
T2C38 000:527 JLINK_WriteReg(R6, 0x00000000)  returns 0x00 (0000ms, 0241ms total)
T2C38 000:527 JLINK_WriteReg(R7, 0x00000000)  returns 0x00 (0000ms, 0241ms total)
T2C38 000:527 JLINK_WriteReg(R8, 0x00000000)  returns 0x00 (0000ms, 0241ms total)
T2C38 000:527 JLINK_WriteReg(R9, 0x20000224)  returns 0x00 (0000ms, 0241ms total)
T2C38 000:527 JLINK_WriteReg(R10, 0x00000000)  returns 0x00 (0000ms, 0241ms total)
T2C38 000:527 JLINK_WriteReg(R11, 0x00000000)  returns 0x00 (0000ms, 0241ms total)
T2C38 000:527 JLINK_WriteReg(R12, 0x00000000)  returns 0x00 (0000ms, 0241ms total)
T2C38 000:527 JLINK_WriteReg(R13 (SP), 0x20002000)  returns 0x00 (0000ms, 0241ms total)
T2C38 000:527 JLINK_WriteReg(R14, 0x20000001)  returns 0x00 (0000ms, 0241ms total)
T2C38 000:527 JLINK_WriteReg(R15 (PC), 0x200000CE)  returns 0x00 (0000ms, 0241ms total)
T2C38 000:527 JLINK_WriteReg(XPSR, 0x01000000)  returns 0x00 (0000ms, 0241ms total)
T2C38 000:527 JLINK_WriteReg(MSP, 0x20002000)  returns 0x00 (0000ms, 0241ms total)
T2C38 000:527 JLINK_WriteReg(PSP, 0x20002000)  returns 0x00 (0000ms, 0241ms total)
T2C38 000:527 JLINK_WriteReg(CFBP, 0x00000000)  returns 0x00 (0000ms, 0241ms total)
T2C38 000:527 JLINK_SetBPEx(Addr = 0x20000000, Type = 0xFFFFFFF2)  returns 0x0000000D (0000ms, 0241ms total)
T2C38 000:527 JLINK_Go() -- CPU_ReadMem(4 bytes @ 0xE0001000) (0002ms, 0243ms total)
T2C38 000:529 JLINK_IsHalted()  returns FALSE (0002ms, 0245ms total)
T2C38 000:532 JLINK_IsHalted() -- CPU_ReadMem(2 bytes @ 0x20000000)  returns TRUE (0004ms, 0247ms total)
T2C38 000:536 JLINK_ReadReg(R15 (PC))  returns 0x20000000 (0000ms, 0243ms total)
T2C38 000:536 JLINK_ClrBPEx(BPHandle = 0x0000000D)  returns 0x00 (0000ms, 0243ms total)
T2C38 000:536 JLINK_ReadReg(R0)  returns 0x00000000 (0000ms, 0243ms total)
T2C38 000:537 JLINK_WriteReg(R0, 0x00025000)  returns 0x00 (0000ms, 0243ms total)
T2C38 000:537 JLINK_WriteReg(R1, 0x00001000)  returns 0x00 (0000ms, 0243ms total)
T2C38 000:537 JLINK_WriteReg(R2, 0x000000FF)  returns 0x00 (0000ms, 0243ms total)
T2C38 000:537 JLINK_WriteReg(R3, 0x00000000)  returns 0x00 (0000ms, 0243ms total)
T2C38 000:537 JLINK_WriteReg(R4, 0x00000000)  returns 0x00 (0000ms, 0243ms total)
T2C38 000:537 JLINK_WriteReg(R5, 0x00000000)  returns 0x00 (0000ms, 0243ms total)
T2C38 000:537 JLINK_WriteReg(R6, 0x00000000)  returns 0x00 (0000ms, 0243ms total)
T2C38 000:537 JLINK_WriteReg(R7, 0x00000000)  returns 0x00 (0000ms, 0243ms total)
T2C38 000:537 JLINK_WriteReg(R8, 0x00000000)  returns 0x00 (0000ms, 0243ms total)
T2C38 000:537 JLINK_WriteReg(R9, 0x20000224)  returns 0x00 (0000ms, 0243ms total)
T2C38 000:537 JLINK_WriteReg(R10, 0x00000000)  returns 0x00 (0000ms, 0243ms total)
T2C38 000:537 JLINK_WriteReg(R11, 0x00000000)  returns 0x00 (0000ms, 0243ms total)
T2C38 000:537 JLINK_WriteReg(R12, 0x00000000)  returns 0x00 (0000ms, 0243ms total)
T2C38 000:537 JLINK_WriteReg(R13 (SP), 0x20002000)  returns 0x00 (0000ms, 0243ms total)
T2C38 000:537 JLINK_WriteReg(R14, 0x20000001)  returns 0x00 (0000ms, 0243ms total)
T2C38 000:537 JLINK_WriteReg(R15 (PC), 0x20000110)  returns 0x00 (0000ms, 0243ms total)
T2C38 000:537 JLINK_WriteReg(XPSR, 0x01000000)  returns 0x00 (0000ms, 0243ms total)
T2C38 000:537 JLINK_WriteReg(MSP, 0x20002000)  returns 0x00 (0000ms, 0243ms total)
T2C38 000:537 JLINK_WriteReg(PSP, 0x20002000)  returns 0x00 (0000ms, 0243ms total)
T2C38 000:537 JLINK_WriteReg(CFBP, 0x00000000)  returns 0x00 (0000ms, 0243ms total)
T2C38 000:537 JLINK_SetBPEx(Addr = 0x20000000, Type = 0xFFFFFFF2)  returns 0x0000000E (0000ms, 0243ms total)
T2C38 000:537 JLINK_Go() -- CPU_ReadMem(4 bytes @ 0xE0001000) (0004ms, 0247ms total)
T2C38 000:541 JLINK_IsHalted() -- CPU_ReadMem(2 bytes @ 0x20000000)  returns TRUE (0006ms, 0253ms total)
T2C38 000:547 JLINK_ReadReg(R15 (PC))  returns 0x20000000 (0000ms, 0247ms total)
T2C38 000:547 JLINK_ClrBPEx(BPHandle = 0x0000000E)  returns 0x00 (0000ms, 0247ms total)
T2C38 000:547 JLINK_ReadReg(R0)  returns 0x00000001 (0000ms, 0247ms total)
T2C38 000:547 JLINK_WriteReg(R0, 0x00025000)  returns 0x00 (0000ms, 0247ms total)
T2C38 000:547 JLINK_WriteReg(R1, 0x00001000)  returns 0x00 (0000ms, 0247ms total)
T2C38 000:547 JLINK_WriteReg(R2, 0x000000FF)  returns 0x00 (0000ms, 0247ms total)
T2C38 000:547 JLINK_WriteReg(R3, 0x00000000)  returns 0x00 (0000ms, 0247ms total)
T2C38 000:547 JLINK_WriteReg(R4, 0x00000000)  returns 0x00 (0000ms, 0247ms total)
T2C38 000:547 JLINK_WriteReg(R5, 0x00000000)  returns 0x00 (0000ms, 0247ms total)
T2C38 000:547 JLINK_WriteReg(R6, 0x00000000)  returns 0x00 (0000ms, 0247ms total)
T2C38 000:547 JLINK_WriteReg(R7, 0x00000000)  returns 0x00 (0000ms, 0247ms total)
T2C38 000:547 JLINK_WriteReg(R8, 0x00000000)  returns 0x00 (0000ms, 0247ms total)
T2C38 000:547 JLINK_WriteReg(R9, 0x20000224)  returns 0x00 (0000ms, 0247ms total)
T2C38 000:547 JLINK_WriteReg(R10, 0x00000000)  returns 0x00 (0000ms, 0247ms total)
T2C38 000:547 JLINK_WriteReg(R11, 0x00000000)  returns 0x00 (0000ms, 0247ms total)
T2C38 000:547 JLINK_WriteReg(R12, 0x00000000)  returns 0x00 (0000ms, 0247ms total)
T2C38 000:547 JLINK_WriteReg(R13 (SP), 0x20002000)  returns 0x00 (0000ms, 0247ms total)
T2C38 000:547 JLINK_WriteReg(R14, 0x20000001)  returns 0x00 (0000ms, 0247ms total)
T2C38 000:547 JLINK_WriteReg(R15 (PC), 0x200000CE)  returns 0x00 (0000ms, 0247ms total)
T2C38 000:547 JLINK_WriteReg(XPSR, 0x01000000)  returns 0x00 (0000ms, 0247ms total)
T2C38 000:547 JLINK_WriteReg(MSP, 0x20002000)  returns 0x00 (0000ms, 0247ms total)
T2C38 000:547 JLINK_WriteReg(PSP, 0x20002000)  returns 0x00 (0000ms, 0247ms total)
T2C38 000:547 JLINK_WriteReg(CFBP, 0x00000000)  returns 0x00 (0000ms, 0247ms total)
T2C38 000:547 JLINK_SetBPEx(Addr = 0x20000000, Type = 0xFFFFFFF2)  returns 0x0000000F (0000ms, 0247ms total)
T2C38 000:547 JLINK_Go() -- CPU_ReadMem(4 bytes @ 0xE0001000) (0003ms, 0250ms total)
T2C38 000:550 JLINK_IsHalted()  returns FALSE (0001ms, 0251ms total)
T2C38 000:589 JLINK_IsHalted() -- CPU_ReadMem(2 bytes @ 0x20000000)  returns TRUE (0005ms, 0255ms total)
T2C38 000:594 JLINK_ReadReg(R15 (PC))  returns 0x20000000 (0000ms, 0250ms total)
T2C38 000:594 JLINK_ClrBPEx(BPHandle = 0x0000000F)  returns 0x00 (0000ms, 0250ms total)
T2C38 000:594 JLINK_ReadReg(R0)  returns 0x00000000 (0000ms, 0250ms total)
T2C38 000:595 JLINK_WriteReg(R0, 0x00026000)  returns 0x00 (0000ms, 0250ms total)
T2C38 000:595 JLINK_WriteReg(R1, 0x00001000)  returns 0x00 (0000ms, 0250ms total)
T2C38 000:595 JLINK_WriteReg(R2, 0x000000FF)  returns 0x00 (0000ms, 0250ms total)
T2C38 000:595 JLINK_WriteReg(R3, 0x00000000)  returns 0x00 (0000ms, 0250ms total)
T2C38 000:595 JLINK_WriteReg(R4, 0x00000000)  returns 0x00 (0000ms, 0250ms total)
T2C38 000:595 JLINK_WriteReg(R5, 0x00000000)  returns 0x00 (0000ms, 0250ms total)
T2C38 000:595 JLINK_WriteReg(R6, 0x00000000)  returns 0x00 (0000ms, 0250ms total)
T2C38 000:595 JLINK_WriteReg(R7, 0x00000000)  returns 0x00 (0000ms, 0250ms total)
T2C38 000:595 JLINK_WriteReg(R8, 0x00000000)  returns 0x00 (0000ms, 0250ms total)
T2C38 000:595 JLINK_WriteReg(R9, 0x20000224)  returns 0x00 (0000ms, 0250ms total)
T2C38 000:595 JLINK_WriteReg(R10, 0x00000000)  returns 0x00 (0000ms, 0250ms total)
T2C38 000:595 JLINK_WriteReg(R11, 0x00000000)  returns 0x00 (0000ms, 0250ms total)
T2C38 000:595 JLINK_WriteReg(R12, 0x00000000)  returns 0x00 (0000ms, 0250ms total)
T2C38 000:595 JLINK_WriteReg(R13 (SP), 0x20002000)  returns 0x00 (0000ms, 0250ms total)
T2C38 000:595 JLINK_WriteReg(R14, 0x20000001)  returns 0x00 (0000ms, 0250ms total)
T2C38 000:595 JLINK_WriteReg(R15 (PC), 0x20000110)  returns 0x00 (0000ms, 0250ms total)
T2C38 000:595 JLINK_WriteReg(XPSR, 0x01000000)  returns 0x00 (0000ms, 0250ms total)
T2C38 000:595 JLINK_WriteReg(MSP, 0x20002000)  returns 0x00 (0000ms, 0250ms total)
T2C38 000:595 JLINK_WriteReg(PSP, 0x20002000)  returns 0x00 (0000ms, 0250ms total)
T2C38 000:595 JLINK_WriteReg(CFBP, 0x00000000)  returns 0x00 (0000ms, 0250ms total)
T2C38 000:595 JLINK_SetBPEx(Addr = 0x20000000, Type = 0xFFFFFFF2)  returns 0x00000010 (0000ms, 0250ms total)
T2C38 000:595 JLINK_Go() -- CPU_ReadMem(4 bytes @ 0xE0001000) (0004ms, 0254ms total)
T2C38 000:599 JLINK_IsHalted() -- CPU_ReadMem(2 bytes @ 0x20000000)  returns TRUE (0005ms, 0259ms total)
T2C38 000:604 JLINK_ReadReg(R15 (PC))  returns 0x20000000 (0000ms, 0254ms total)
T2C38 000:604 JLINK_ClrBPEx(BPHandle = 0x00000010)  returns 0x00 (0000ms, 0254ms total)
T2C38 000:604 JLINK_ReadReg(R0)  returns 0x00000001 (0000ms, 0254ms total)
T2C38 000:604 JLINK_WriteReg(R0, 0x00026000)  returns 0x00 (0000ms, 0254ms total)
T2C38 000:604 JLINK_WriteReg(R1, 0x00001000)  returns 0x00 (0000ms, 0254ms total)
T2C38 000:604 JLINK_WriteReg(R2, 0x000000FF)  returns 0x00 (0000ms, 0254ms total)
T2C38 000:604 JLINK_WriteReg(R3, 0x00000000)  returns 0x00 (0000ms, 0254ms total)
T2C38 000:604 JLINK_WriteReg(R4, 0x00000000)  returns 0x00 (0000ms, 0254ms total)
T2C38 000:604 JLINK_WriteReg(R5, 0x00000000)  returns 0x00 (0000ms, 0254ms total)
T2C38 000:604 JLINK_WriteReg(R6, 0x00000000)  returns 0x00 (0000ms, 0254ms total)
T2C38 000:604 JLINK_WriteReg(R7, 0x00000000)  returns 0x00 (0000ms, 0254ms total)
T2C38 000:604 JLINK_WriteReg(R8, 0x00000000)  returns 0x00 (0000ms, 0254ms total)
T2C38 000:604 JLINK_WriteReg(R9, 0x20000224)  returns 0x00 (0000ms, 0254ms total)
T2C38 000:604 JLINK_WriteReg(R10, 0x00000000)  returns 0x00 (0000ms, 0254ms total)
T2C38 000:604 JLINK_WriteReg(R11, 0x00000000)  returns 0x00 (0000ms, 0254ms total)
T2C38 000:604 JLINK_WriteReg(R12, 0x00000000)  returns 0x00 (0000ms, 0254ms total)
T2C38 000:604 JLINK_WriteReg(R13 (SP), 0x20002000)  returns 0x00 (0001ms, 0255ms total)
T2C38 000:605 JLINK_WriteReg(R14, 0x20000001)  returns 0x00 (0000ms, 0255ms total)
T2C38 000:605 JLINK_WriteReg(R15 (PC), 0x200000CE)  returns 0x00 (0000ms, 0255ms total)
T2C38 000:605 JLINK_WriteReg(XPSR, 0x01000000)  returns 0x00 (0000ms, 0255ms total)
T2C38 000:605 JLINK_WriteReg(MSP, 0x20002000)  returns 0x00 (0000ms, 0255ms total)
T2C38 000:605 JLINK_WriteReg(PSP, 0x20002000)  returns 0x00 (0000ms, 0255ms total)
T2C38 000:605 JLINK_WriteReg(CFBP, 0x00000000)  returns 0x00 (0000ms, 0255ms total)
T2C38 000:605 JLINK_SetBPEx(Addr = 0x20000000, Type = 0xFFFFFFF2)  returns 0x00000011 (0000ms, 0255ms total)
T2C38 000:605 JLINK_Go() -- CPU_ReadMem(4 bytes @ 0xE0001000) (0004ms, 0259ms total)
T2C38 000:609 JLINK_IsHalted()  returns FALSE (0000ms, 0259ms total)
T2C38 000:610 JLINK_IsHalted()  returns FALSE (0000ms, 0259ms total)
T2C38 000:611 JLINK_IsHalted() -- CPU_ReadMem(2 bytes @ 0x20000000)  returns TRUE (0004ms, 0263ms total)
T2C38 000:616 JLINK_ReadReg(R15 (PC))  returns 0x20000000 (0000ms, 0259ms total)
T2C38 000:616 JLINK_ClrBPEx(BPHandle = 0x00000011)  returns 0x00 (0000ms, 0259ms total)
T2C38 000:616 JLINK_ReadReg(R0)  returns 0x00000000 (0000ms, 0259ms total)
T2C38 000:616 JLINK_WriteReg(R0, 0x00000001)  returns 0x00 (0000ms, 0259ms total)
T2C38 000:616 JLINK_WriteReg(R1, 0x00001000)  returns 0x00 (0000ms, 0259ms total)
T2C38 000:616 JLINK_WriteReg(R2, 0x000000FF)  returns 0x00 (0000ms, 0259ms total)
T2C38 000:616 JLINK_WriteReg(R3, 0x00000000)  returns 0x00 (0000ms, 0259ms total)
T2C38 000:616 JLINK_WriteReg(R4, 0x00000000)  returns 0x00 (0000ms, 0259ms total)
T2C38 000:616 JLINK_WriteReg(R5, 0x00000000)  returns 0x00 (0000ms, 0259ms total)
T2C38 000:616 JLINK_WriteReg(R6, 0x00000000)  returns 0x00 (0000ms, 0259ms total)
T2C38 000:616 JLINK_WriteReg(R7, 0x00000000)  returns 0x00 (0000ms, 0259ms total)
T2C38 000:616 JLINK_WriteReg(R8, 0x00000000)  returns 0x00 (0000ms, 0259ms total)
T2C38 000:616 JLINK_WriteReg(R9, 0x20000224)  returns 0x00 (0000ms, 0259ms total)
T2C38 000:616 JLINK_WriteReg(R10, 0x00000000)  returns 0x00 (0000ms, 0259ms total)
T2C38 000:616 JLINK_WriteReg(R11, 0x00000000)  returns 0x00 (0000ms, 0259ms total)
T2C38 000:616 JLINK_WriteReg(R12, 0x00000000)  returns 0x00 (0000ms, 0259ms total)
T2C38 000:616 JLINK_WriteReg(R13 (SP), 0x20002000)  returns 0x00 (0000ms, 0259ms total)
T2C38 000:616 JLINK_WriteReg(R14, 0x20000001)  returns 0x00 (0000ms, 0259ms total)
T2C38 000:616 JLINK_WriteReg(R15 (PC), 0x20000084)  returns 0x00 (0000ms, 0259ms total)
T2C38 000:616 JLINK_WriteReg(XPSR, 0x01000000)  returns 0x00 (0000ms, 0259ms total)
T2C38 000:616 JLINK_WriteReg(MSP, 0x20002000)  returns 0x00 (0000ms, 0259ms total)
T2C38 000:616 JLINK_WriteReg(PSP, 0x20002000)  returns 0x00 (0000ms, 0259ms total)
T2C38 000:616 JLINK_WriteReg(CFBP, 0x00000000)  returns 0x00 (0000ms, 0259ms total)
T2C38 000:616 JLINK_SetBPEx(Addr = 0x20000000, Type = 0xFFFFFFF2)  returns 0x00000012 (0000ms, 0259ms total)
T2C38 000:616 JLINK_Go() -- CPU_ReadMem(4 bytes @ 0xE0001000) (0004ms, 0263ms total)
T2C38 000:620 JLINK_IsHalted() -- CPU_ReadMem(2 bytes @ 0x20000000)  returns TRUE (0005ms, 0268ms total)
T2C38 000:625 JLINK_ReadReg(R15 (PC))  returns 0x20000000 (0000ms, 0263ms total)
T2C38 000:625 JLINK_ClrBPEx(BPHandle = 0x00000012)  returns 0x00 (0000ms, 0263ms total)
T2C38 000:625 JLINK_ReadReg(R0)  returns 0x00000000 (0000ms, 0263ms total)
T2C38 000:679 JLINK_WriteMem(0x20000000, 0x0228 Bytes, ...) - Data: 00 BE 0A E0 0D 78 2D 06 68 40 08 24 40 00 00 D3 ... -- CPU_WriteMem(552 bytes @ 0x20000000)  returns 0x228 (0005ms, 0268ms total)
T2C38 000:684 JLINK_WriteReg(R0, 0x00000000)  returns 0x00 (0000ms, 0268ms total)
T2C38 000:684 JLINK_WriteReg(R1, 0x03D09000)  returns 0x00 (0000ms, 0268ms total)
T2C38 000:684 JLINK_WriteReg(R2, 0x00000002)  returns 0x00 (0000ms, 0268ms total)
T2C38 000:684 JLINK_WriteReg(R3, 0x00000000)  returns 0x00 (0000ms, 0268ms total)
T2C38 000:684 JLINK_WriteReg(R4, 0x00000000)  returns 0x00 (0000ms, 0268ms total)
T2C38 000:684 JLINK_WriteReg(R5, 0x00000000)  returns 0x00 (0000ms, 0268ms total)
T2C38 000:684 JLINK_WriteReg(R6, 0x00000000)  returns 0x00 (0000ms, 0268ms total)
T2C38 000:684 JLINK_WriteReg(R7, 0x00000000)  returns 0x00 (0000ms, 0268ms total)
T2C38 000:684 JLINK_WriteReg(R8, 0x00000000)  returns 0x00 (0001ms, 0269ms total)
T2C38 000:685 JLINK_WriteReg(R9, 0x20000224)  returns 0x00 (0000ms, 0269ms total)
T2C38 000:685 JLINK_WriteReg(R10, 0x00000000)  returns 0x00 (0000ms, 0269ms total)
T2C38 000:685 JLINK_WriteReg(R11, 0x00000000)  returns 0x00 (0000ms, 0269ms total)
T2C38 000:685 JLINK_WriteReg(R12, 0x00000000)  returns 0x00 (0000ms, 0269ms total)
T2C38 000:685 JLINK_WriteReg(R13 (SP), 0x20002000)  returns 0x00 (0000ms, 0269ms total)
